
T0BFC 000:408 SEGGER J-Link V4.36l Log File (0001ms, 0406ms total)
T0BFC 000:408 DLL Compiled: Dec  2 2011 18:52:36 (0001ms, 0406ms total)
T0BFC 000:408 Logging started @ 2013-01-28 11:54 (0001ms, 0406ms total)
T0BFC 000:409 JLINK_SetWarnOutHandler(...) (0000ms, 0407ms total)
T0BFC 000:409 JLINK_OpenEx(...)
Firmware: J-Link ARM V8 compiled Sep 22 2011 16:23:23
Hardware: V8.00
S/N: 20100214
Feature(s): RDI,FlashDL,FlashBP,JFlash,GDBFull  returns O.K. (0120ms, 0407ms total)
T0BFC 000:529 JLINK_SetErrorOutHandler(...) (0000ms, 0527ms total)
T0BFC 000:529 JLINK_ExecCommand("Device = LPC1768", ...)
                JLINK_ExecCommand("map ram 0x10000000 - 0x10007FFF", ...)  returns 0x00 (0000ms, 0000ms total)
                JLINK_AddMirrorAreaEx(Addr = 0x00000000, Size = 0x00000000) (0000ms, 0000ms total)
              Device "LPC1768" selected (512 KB flash, 32 KB RAM).  returns 0x00 (0008ms, 0527ms total)
T0BFC 000:538 JLINK_ExecCommand("ProjectFile = "E:\进行中的项目文档\电力版程序\电力版最新\驱动改回来了的\MB1C6U111-20130128\MB1C6U111\JLinkSettings.ini"", ...)  returns 0x00 (0002ms, 0535ms total)
T0BFC 000:545 JLINK_ExecCommand("DisableConnectionTimeout", ...)  returns 0x00 (0000ms, 0537ms total)
T0BFC 000:546 JLINK_TIF_Select(JLINKARM_TIF_JTAG)  returns 0x00 (0000ms, 0537ms total)
T0BFC 000:546 JLINK_SetSpeed(2000) (0001ms, 0537ms total)
T0BFC 000:547 JLINK_GetHardwareVersion()  returns 0x13880 (0000ms, 0538ms total)
T0BFC 000:547 JLINK_GetDLLVersion()  returns 43612 (0000ms, 0538ms total)
T0BFC 000:547 JLINK_GetFirmwareString(...) (0000ms, 0538ms total)
T0BFC 000:556 JLINK_GetDLLVersion()  returns 43612 (0000ms, 0538ms total)
T0BFC 000:556 JLINK_GetCompileDateTime() (0000ms, 0538ms total)
T0BFC 000:559 JLINK_GetFirmwareString(...) (0000ms, 0538ms total)
T0BFC 000:561 JLINK_GetHardwareVersion()  returns 0x13880 (0000ms, 0538ms total)
T0BFC 000:571 JLINK_GetIdData(...) >0x2F8 JTAG>TotalIRLen = 4, IRPrint = 0x01 >0x30 JTAG> >0x210 JTAG> >0x78 JTAG> >0x40 JTAG> >0x40 JTAG> >0x48 JTAG> >0x40 JTAG> >0x40 JTAG> >0x40 JTAG> >0x48 JTAG> >0x40 JTAG> >0x48 JTAG> >0x40 JTAG> >0x40 JTAG> >0x40 JTAG> >0x30 JTAG> >0x40 JTAG> >0x48 JTAG> >0x40 JTAG> >0x30 JTAG> >0x78 JTAG> >0x40 JTAG> >0x40 JTAG> >0x48 JTAG> >0x40 JTAG> >0x40 JTAG> >0x40 JTAG> >0x48 JTAG> >0x40 JTAG> >0x40 JTAG> >0x30 JTAG> >0x40 JTAG> >0x40 JTAG> >0x40 JTAG> >0x40 JTAG>
 >0x40 JTAG> >0x48 JTAG> >0x40 JTAG> >0x78 JTAG> >0x40 JTAG> >0x30 JTAG> >0x40 JTAG> >0x40 JTAG> >0x40 JTAG> >0x40 JTAG> >0x40 JTAG> >0x48 JTAG> >0x40 JTAG> >0x78 JTAG> >0x40 JTAG> >0x30 JTAG> >0x40 JTAG> >0x48 JTAG> >0x40 JTAG> >0x40 JTAG> >0x40 JTAG> >0x30 JTAG> >0x40 JTAG> >0x48 JTAG> >0x40 JTAG>Found Cortex-M3 r2p0, Little endian. >0x48 JTAG> >0x48 JTAG> >0x40 JTAG> >0x40 JTAG> >0x30 JTAG> >0x30 JTAG> >0x48 JTAG> >0x40 JTAG> >0x78 JTAG> >0x40 JTAG> >0x30 JTAG> >0x40 JTAG> >0x48 JTAG> >0x40 JTAG>
 >0x40 JTAG> >0x40 JTAG> >0x30 JTAG> >0x30 JTAG> >0x48 JTAG> >0x40 JTAG> >0x78 JTAG> >0x40 JTAG> >0x30 JTAG> >0x40 JTAG> >0x48 JTAG> >0x40 JTAG>TPIU fitted. >0x40 JTAG> >0x40 JTAG> >0x30 JTAG> >0x40 JTAG> >0x48 JTAG> >0x40 JTAG>ETM fitted. >0x40 JTAG> >0x40 JTAG> >0x30 JTAG> >0x40 JTAG> >0x48 JTAG> >0x40 JTAG> >0x40 JTAG> >0x40 JTAG> >0x30 JTAG> >0x40 JTAG> >0x48 JTAG> >0x40 JTAG>  FPUnit: 6 code (BP) slots and 2 literal slots >0x40 JTAG> >0x40 JTAG> >0x30 JTAG> >0x40 JTAG> >0x48 JTAG> >0x40 JTAG>
 >0x40 JTAG> >0x40 JTAG> >0x30 JTAG> >0x30 JTAG> >0x48 JTAG> >0x40 JTAG> >0x78 JTAG> >0x40 JTAG> >0x30 JTAG> >0x40 JTAG> >0x48 JTAG> >0x40 JTAG> ScanLen=4 NumDevices=1 aId[0]=0x4BA00477 aIrRead[0]=0 aScanLen[0]=0 aScanRead[0]=0 (0138ms, 0538ms total)
T0BFC 000:709 JLINK_JTAG_GetDeviceID(DeviceIndex = 0)  returns 0x4BA00477 (0000ms, 0676ms total)
T0BFC 000:709 JLINK_JTAG_GetDeviceInfo(DeviceIndex = 0)  returns 0x00 (0000ms, 0676ms total)
T0BFC 000:709 JLINK_GetDebugInfo(0x100) -- Value=0xE00FF003  returns 0x00 (0000ms, 0676ms total)
T0BFC 000:711 JLINK_ReadMem (0xE00FFFF0, 0x0010 Bytes, ...) -- CPU is running -- CPU_ReadMem(16 bytes @ 0xE00FFFF0) -- Data:  0D 00 00 00 10 00 00 00 05 00 00 00 B1 00 00 00  returns 0x00 (0005ms, 0676ms total)
T0BFC 000:716 JLINK_ReadMem (0xE00FFFD0, 0x0020 Bytes, ...) -- CPU is running -- CPU_ReadMem(32 bytes @ 0xE00FFFD0) -- Data:  00 00 00 00 00 00 00 00 00 00 00 00 00 00 00 00 ...  returns 0x00 (0002ms, 0681ms total)
T0BFC 000:718 JLINK_ReadMem (0xE00FF000, 0x0018 Bytes, ...) -- CPU is running -- CPU_ReadMem(24 bytes @ 0xE00FF000) -- Data:  03 F0 F0 FF 03 20 F0 FF 03 30 F0 FF 03 10 F0 FF ...  returns 0x00 (0001ms, 0683ms total)
T0BFC 000:719 JLINK_ReadMemU32(0xE000ED00, 0x0001 Items, ...) -- CPU is running -- CPU_ReadMem(4 bytes @ 0xE000ED00) -- Data:  30 C2 2F 41  returns 0x01 (0001ms, 0684ms total)
T0BFC 000:720 JLINK_SetResetType(JLINKARM_RESET_TYPE_NORMAL)  returns ??? (0000ms, 0685ms total)
T0BFC 000:720 JLINK_Reset() >0x300 JTAG>TotalIRLen = 4, IRPrint = 0x01 >0x30 JTAG> >0x210 JTAG> >0x78 JTAG> >0x40 JTAG> >0x40 JTAG> >0x48 JTAG> >0x40 JTAG> >0x40 JTAG> >0x40 JTAG> >0x48 JTAG> >0x40 JTAG> >0x48 JTAG> >0x40 JTAG> >0x40 JTAG> >0x40 JTAG> >0x30 JTAG> >0x40 JTAG> >0x48 JTAG> >0x40 JTAG> >0x30 JTAG> >0x78 JTAG> >0x40 JTAG> >0x40 JTAG> >0x48 JTAG> >0x40 JTAG> >0x40 JTAG> >0x40 JTAG> >0x48 JTAG> >0x40 JTAG> >0x40 JTAG> >0x30 JTAG> >0x40 JTAG> >0x40 JTAG> >0x40 JTAG> >0x40 JTAG> >0x40 JTAG>
 >0x48 JTAG> >0x40 JTAG> >0x78 JTAG> >0x40 JTAG> >0x30 JTAG> >0x40 JTAG> >0x40 JTAG> >0x40 JTAG> >0x40 JTAG> >0x40 JTAG> >0x48 JTAG> >0x40 JTAG> >0x78 JTAG> >0x40 JTAG> >0x30 JTAG> >0x40 JTAG> >0x48 JTAG> >0x40 JTAG> >0x40 JTAG> >0x40 JTAG> >0x30 JTAG> >0x40 JTAG> >0x48 JTAG> >0x40 JTAG>Found Cortex-M3 r2p0, Little endian. >0x48 JTAG> >0x48 JTAG> >0x40 JTAG> >0x40 JTAG> >0x30 JTAG> >0x30 JTAG> >0x48 JTAG> >0x40 JTAG> >0x78 JTAG> >0x40 JTAG> >0x30 JTAG> >0x40 JTAG> >0x48 JTAG> >0x40 JTAG> >0x40 JTAG>
 >0x40 JTAG> >0x30 JTAG> >0x40 JTAG> >0x48 JTAG> >0x40 JTAG>TPIU fitted. >0x40 JTAG> >0x40 JTAG> >0x30 JTAG> >0x40 JTAG> >0x48 JTAG> >0x40 JTAG>ETM fitted. >0x40 JTAG> >0x40 JTAG> >0x30 JTAG> >0x40 JTAG> >0x48 JTAG> >0x40 JTAG> >0x40 JTAG> >0x40 JTAG> >0x30 JTAG> >0x40 JTAG> >0x48 JTAG> >0x40 JTAG>  FPUnit: 6 code (BP) slots and 2 literal slots >0x40 JTAG> >0x40 JTAG> >0x30 JTAG> >0x40 JTAG> >0x48 JTAG> >0x40 JTAG> >0x40 JTAG> >0x40 JTAG> >0x30 JTAG> >0x40 JTAG> >0x48 JTAG> >0x40 JTAG> >0x40 JTAG>
 >0x78 JTAG> >0x40 JTAG> >0x40 JTAG> >0x48 JTAG> >0x40 JTAG> >0x40 JTAG> >0x40 JTAG> >0x48 JTAG> >0x40 JTAG> >0x40 JTAG> >0x30 JTAG> >0x40 JTAG> >0x40 JTAG> >0x40 JTAG> >0x40 JTAG> >0x40 JTAG> >0x48 JTAG> >0x40 JTAG> >0x78 JTAG> >0x40 JTAG> >0x30 JTAG> >0x40 JTAG> >0x40 JTAG> >0x40 JTAG> >0x40 JTAG> >0x40 JTAG> >0x48 JTAG> >0x40 JTAG> >0x78 JTAG> >0x40 JTAG> >0x30 JTAG> >0x40 JTAG> >0x48 JTAG> >0x40 JTAG> >0x40 JTAG> >0x40 JTAG> >0x30 JTAG> >0x40 JTAG> >0x48 JTAG> >0x40 JTAG>
Found Cortex-M3 r2p0, Little endian. >0x48 JTAG> >0x48 JTAG> >0x40 JTAG> >0x40 JTAG> >0x30 JTAG> >0x30 JTAG> >0x48 JTAG> >0x40 JTAG> >0x78 JTAG> >0x40 JTAG> >0x30 JTAG> >0x40 JTAG> >0x48 JTAG> >0x40 JTAG> >0x40 JTAG> >0x40 JTAG> >0x30 JTAG> >0x40 JTAG> >0x48 JTAG> >0x40 JTAG>TPIU fitted. >0x40 JTAG> >0x40 JTAG> >0x30 JTAG> >0x40 JTAG> >0x48 JTAG> >0x40 JTAG>ETM fitted. >0x40 JTAG> >0x40 JTAG> >0x30 JTAG> >0x40 JTAG> >0x48 JTAG> >0x40 JTAG> >0x40 JTAG> >0x40 JTAG> >0x30 JTAG> >0x40 JTAG> >0x48 JTAG>
 >0x40 JTAG>  FPUnit: 6 code (BP) slots and 2 literal slots >0x40 JTAG> >0x40 JTAG> >0x30 JTAG> >0x40 JTAG> >0x48 JTAG> >0x40 JTAG> >0x40 JTAG> >0x40 JTAG> >0x30 JTAG> >0x40 JTAG> >0x48 JTAG> >0x40 JTAG> -- CPU is running -- CPU_WriteMem(4 bytes @ 0xE000EDF0) -- CPU is running -- CPU_WriteMem(4 bytes @ 0xE000EDFC) -- CPU is running -- CPU_WriteMem(4 bytes @ 0xE000ED0C) -- CPU is running -- CPU_ReadMem(4 bytes @ 0xE000EDF0) -- CPU is running -- CPU_ReadMem(4 bytes @ 0xE000EDF0) -- CPU is running
 -- CPU_WriteMem(4 bytes @ 0xE000EDF0) -- CPU is running -- CPU_WriteMem(4 bytes @ 0xE000EDFC) -- CPU is running -- CPU_ReadMem(4 bytes @ 0xE000EDF0) >0x80 JTAG> >0x40 JTAG> >0x30 JTAG> >0x40 JTAG> >0x48 JTAG> >0x40 JTAG> -- CPU_WriteMem(4 bytes @ 0xE000EDFC) -- CPU_WriteMem(4 bytes @ 0xE0001028) -- CPU_WriteMem(4 bytes @ 0xE0001038) -- CPU_WriteMem(4 bytes @ 0xE0001048) -- CPU_WriteMem(4 bytes @ 0xE0001058) -- CPU_WriteMem(4 bytes @ 0xE000EDFC) -- CPU_WriteMem(4 bytes @ 0xE0001028)
 -- CPU_WriteMem(4 bytes @ 0xE0001028) -- CPU_WriteMem(4 bytes @ 0xE000EDFC) -- CPU_WriteMem(4 bytes @ 0xE0001028) -- CPU_WriteMem(4 bytes @ 0xE0001028) -- CPU_WriteMem(4 bytes @ 0xE000EDFC) -- CPU_WriteMem(4 bytes @ 0xE0001028) -- CPU_WriteMem(4 bytes @ 0xE0001028) -- CPU_WriteMem(4 bytes @ 0xE000EDFC) -- CPU_WriteMem(4 bytes @ 0xE0001028) -- CPU_WriteMem(4 bytes @ 0xE0001028) -- CPU_WriteMem(4 bytes @ 0xE000EDFC) -- CPU_WriteMem(4 bytes @ 0xE0001050) -- CPU_WriteMem(4 bytes @ 0xE0001054)
 -- CPU_WriteMem(4 bytes @ 0xE0001058) -- CPU_WriteMem(4 bytes @ 0xE000EDFC) -- CPU_WriteMem(4 bytes @ 0xE0001058) -- CPU_ReadMem(4 bytes @ 0x00000004) >0x06 JTAG> (0401ms, 0685ms total)
T0BFC 001:122 JLINK_Halt()  returns 0x00 (0001ms, 1086ms total)
T0BFC 001:123 JLINK_IsHalted()  returns TRUE (0000ms, 1087ms total)
T0BFC 001:123 JLINK_ReadMemU32(0xE000EDF0, 0x0001 Items, ...) -- CPU_ReadMem(4 bytes @ 0xE000EDF0) -- Data:  03 00 03 00  returns 0x01 (0001ms, 1087ms total)
T0BFC 001:124 JLINK_WriteU32(0xE000EDF0, 0xA05F0003) -- CPU_WriteMem(4 bytes @ 0xE000EDF0)  returns 0x00 (0001ms, 1088ms total)
T0BFC 001:125 JLINK_WriteU32(0xE000EDFC, 0x01000000) -- CPU_WriteMem(4 bytes @ 0xE000EDFC)  returns 0x00 (0001ms, 1089ms total)
T0BFC 001:134 JLINK_GetHWStatus(...)  returns 0x00 (0001ms, 1090ms total)
T0BFC 001:141 JLINK_GetNumBPUnits(Type = 0xFFFFFF00)  returns 0x06 (0000ms, 1091ms total)
T0BFC 001:141 JLINK_GetNumBPUnits(Type = 0xF0)  returns 0x2000 (0000ms, 1091ms total)
T0BFC 001:141 JLINK_GetNumWPUnits()  returns 0x04 (0000ms, 1091ms total)
T0BFC 001:148 JLINK_GetSpeed()  returns 0x7D0 (0000ms, 1091ms total)
T0BFC 001:151 JLINK_ReadMemU32(0xE000E004, 0x0001 Items, ...) -- CPU_ReadMem(4 bytes @ 0xE000E004) -- Data:  01 00 00 00  returns 0x01 (0002ms, 1091ms total)
T0BFC 001:153 JLINK_ReadMemU32(0xE000E004, 0x0001 Items, ...) -- CPU_ReadMem(4 bytes @ 0xE000E004) -- Data:  01 00 00 00  returns 0x01 (0001ms, 1093ms total)
T0BFC 001:154 JLINK_WriteMem(0xE0001000, 0x001C Bytes, ...) -- Data:  01 00 00 00 00 00 00 00 00 00 00 00 00 00 00 00 ... -- CPU_WriteMem(28 bytes @ 0xE0001000)  returns 0x1C (0001ms, 1094ms total)
T0BFC 001:155 JLINK_ReadMem (0xE0001000, 0x001C Bytes, ...) -- CPU_ReadMem(28 bytes @ 0xE0001000) -- Data:  01 00 00 40 00 00 00 00 00 00 00 00 00 00 00 00 ...  returns 0x00 (0001ms, 1095ms total)
T0BFC 001:156 JLINK_Halt()  returns 0x00 (0000ms, 1096ms total)
T0BFC 001:156 JLINK_IsHalted()  returns TRUE (0000ms, 1096ms total)
T0BFC 001:164 JLINK_WriteMem(0x10000000, 0x01D4 Bytes, ...) -- Data:  00 BE 0A E0 0D 78 2D 06 68 40 08 24 40 00 00 D3 ... -- CPU_WriteMem(468 bytes @ 0x10000000)  returns 0x1D4 (0009ms, 1096ms total)
T0BFC 001:173 JLINK_WriteReg(R0, 0x00000000)  returns 0x00 (0000ms, 1105ms total)
T0BFC 001:173 JLINK_WriteReg(R1, 0x00B71B00)  returns 0x00 (0000ms, 1105ms total)
T0BFC 001:173 JLINK_WriteReg(R2, 0x00000001)  returns 0x00 (0000ms, 1105ms total)
T0BFC 001:173 JLINK_WriteReg(R3, 0x00000000)  returns 0x00 (0000ms, 1105ms total)
T0BFC 001:173 JLINK_WriteReg(R4, 0x00000000)  returns 0x00 (0000ms, 1105ms total)
T0BFC 001:173 JLINK_WriteReg(R5, 0x00000000)  returns 0x00 (0000ms, 1105ms total)
T0BFC 001:173 JLINK_WriteReg(R6, 0x00000000)  returns 0x00 (0000ms, 1105ms total)
T0BFC 001:173 JLINK_WriteReg(R7, 0x00000000)  returns 0x00 (0000ms, 1105ms total)
T0BFC 001:173 JLINK_WriteReg(R8, 0x00000000)  returns 0x00 (0000ms, 1105ms total)
T0BFC 001:173 JLINK_WriteReg(R9, 0x100001CC)  returns 0x00 (0000ms, 1105ms total)
T0BFC 001:173 JLINK_WriteReg(R10, 0x00000000)  returns 0x00 (0000ms, 1105ms total)
T0BFC 001:173 JLINK_WriteReg(R11, 0x00000000)  returns 0x00 (0000ms, 1105ms total)
T0BFC 001:173 JLINK_WriteReg(R12, 0x00000000)  returns 0x00 (0000ms, 1105ms total)
T0BFC 001:173 JLINK_WriteReg(R13, 0x10000800)  returns 0x00 (0001ms, 1105ms total)
T0BFC 001:174 JLINK_WriteReg(R14, 0x10000001)  returns 0x00 (0000ms, 1106ms total)
T0BFC 001:174 JLINK_WriteReg(R15, 0x10000044)  returns 0x00 (0000ms, 1106ms total)
T0BFC 001:174 JLINK_WriteReg(XPSR, 0x01000000)  returns 0x00 (0000ms, 1106ms total)
T0BFC 001:174 JLINK_WriteReg(MSP, 0x10000800)  returns 0x00 (0000ms, 1106ms total)
T0BFC 001:174 JLINK_WriteReg(PSP, 0x10000800)  returns 0x00 (0000ms, 1106ms total)
T0BFC 001:174 JLINK_WriteReg(CFBP, 0x00000000)  returns 0x00 (0000ms, 1106ms total)
T0BFC 001:174 JLINK_SetBPEx(Addr = 0x10000000, Type = 0xFFFFFFF2)  returns 0x00000001 (0000ms, 1106ms total)
T0BFC 001:174 JLINK_Go() -- CPU_WriteMem(4 bytes @ 0xE0002000) -- CPU_WriteMem(4 bytes @ 0xE0002008) -- CPU_WriteMem(4 bytes @ 0xE000200C) -- CPU_WriteMem(4 bytes @ 0xE0002010) -- CPU_WriteMem(4 bytes @ 0xE0002014) -- CPU_WriteMem(4 bytes @ 0xE0002018) -- CPU_WriteMem(4 bytes @ 0xE000201C) (0011ms, 1106ms total)
T0BFC 001:185 JLINK_IsHalted()  returns TRUE (0005ms, 1117ms total)
T0BFC 001:190 JLINK_ReadReg(R15)  returns 0x10000000 (0000ms, 1117ms total)
T0BFC 001:191 JLINK_ClrBPEx(BPHandle = 0x00000001)  returns 0x00 (0000ms, 1117ms total)
T0BFC 001:191 JLINK_ReadReg(R0)  returns 0x00000000 (0000ms, 1117ms total)
T0BFC 001:191 JLINK_WriteReg(R0, 0x00000000)  returns 0x00 (0000ms, 1117ms total)
T0BFC 001:191 JLINK_WriteReg(R1, 0x00001000)  returns 0x00 (0000ms, 1117ms total)
T0BFC 001:191 JLINK_WriteReg(R2, 0x000000FF)  returns 0x00 (0000ms, 1117ms total)
T0BFC 001:191 JLINK_WriteReg(R3, 0x00000000)  returns 0x00 (0000ms, 1117ms total)
T0BFC 001:191 JLINK_WriteReg(R4, 0x00000000)  returns 0x00 (0000ms, 1117ms total)
T0BFC 001:191 JLINK_WriteReg(R5, 0x00000000)  returns 0x00 (0000ms, 1117ms total)
T0BFC 001:191 JLINK_WriteReg(R6, 0x00000000)  returns 0x00 (0000ms, 1117ms total)
T0BFC 001:191 JLINK_WriteReg(R7, 0x00000000)  returns 0x00 (0001ms, 1117ms total)
T0BFC 001:192 JLINK_WriteReg(R8, 0x00000000)  returns 0x00 (0000ms, 1118ms total)
T0BFC 001:192 JLINK_WriteReg(R9, 0x100001CC)  returns 0x00 (0000ms, 1118ms total)
T0BFC 001:192 JLINK_WriteReg(R10, 0x00000000)  returns 0x00 (0000ms, 1118ms total)
T0BFC 001:192 JLINK_WriteReg(R11, 0x00000000)  returns 0x00 (0000ms, 1118ms total)
T0BFC 001:192 JLINK_WriteReg(R12, 0x00000000)  returns 0x00 (0000ms, 1118ms total)
T0BFC 001:192 JLINK_WriteReg(R13, 0x10000800)  returns 0x00 (0000ms, 1118ms total)
T0BFC 001:192 JLINK_WriteReg(R14, 0x10000001)  returns 0x00 (0000ms, 1118ms total)
T0BFC 001:192 JLINK_WriteReg(R15, 0x10000020)  returns 0x00 (0000ms, 1118ms total)
T0BFC 001:192 JLINK_WriteReg(XPSR, 0x01000000)  returns 0x00 (0000ms, 1118ms total)
T0BFC 001:192 JLINK_WriteReg(MSP, 0x10000800)  returns 0x00 (0000ms, 1118ms total)
T0BFC 001:192 JLINK_WriteReg(PSP, 0x10000800)  returns 0x00 (0000ms, 1118ms total)
T0BFC 001:192 JLINK_WriteReg(CFBP, 0x00000000)  returns 0x00 (0000ms, 1118ms total)
T0BFC 001:192 JLINK_SetBPEx(Addr = 0x10000000, Type = 0xFFFFFFF2)  returns 0x00000002 (0000ms, 1118ms total)
T0BFC 001:192 JLINK_Go() -- CPU_WriteMem(4 bytes @ 0xE0002008) -- CPU_WriteMem(4 bytes @ 0xE000200C) -- CPU_WriteMem(4 bytes @ 0xE0002010) -- CPU_WriteMem(4 bytes @ 0xE0002014) -- CPU_WriteMem(4 bytes @ 0xE0002018) -- CPU_WriteMem(4 bytes @ 0xE000201C) (0010ms, 1118ms total)
T0BFC 001:202 JLINK_IsHalted()  returns FALSE (0001ms, 1128ms total)
T0BFC 001:254 JLINK_IsHalted()  returns TRUE (0006ms, 1128ms total)
T0BFC 001:260 JLINK_ReadReg(R15)  returns 0x10000000 (0000ms, 1128ms total)
T0BFC 001:260 JLINK_ClrBPEx(BPHandle = 0x00000002)  returns 0x00 (0000ms, 1128ms total)
T0BFC 001:260 JLINK_ReadReg(R0)  returns 0x00000000 (0000ms, 1128ms total)
T0BFC 001:261 JLINK_WriteReg(R0, 0x00001000)  returns 0x00 (0000ms, 1128ms total)
T0BFC 001:261 JLINK_WriteReg(R1, 0x00001000)  returns 0x00 (0000ms, 1128ms total)
T0BFC 001:261 JLINK_WriteReg(R2, 0x000000FF)  returns 0x00 (0000ms, 1128ms total)
T0BFC 001:261 JLINK_WriteReg(R3, 0x00000000)  returns 0x00 (0000ms, 1128ms total)
T0BFC 001:261 JLINK_WriteReg(R4, 0x00000000)  returns 0x00 (0000ms, 1128ms total)
T0BFC 001:261 JLINK_WriteReg(R5, 0x00000000)  returns 0x00 (0000ms, 1128ms total)
T0BFC 001:261 JLINK_WriteReg(R6, 0x00000000)  returns 0x00 (0000ms, 1128ms total)
T0BFC 001:261 JLINK_WriteReg(R7, 0x00000000)  returns 0x00 (0000ms, 1128ms total)
T0BFC 001:261 JLINK_WriteReg(R8, 0x00000000)  returns 0x00 (0000ms, 1128ms total)
T0BFC 001:261 JLINK_WriteReg(R9, 0x100001CC)  returns 0x00 (0000ms, 1128ms total)
T0BFC 001:262 JLINK_WriteReg(R10, 0x00000000)  returns 0x00 (0000ms, 1128ms total)
T0BFC 001:262 JLINK_WriteReg(R11, 0x00000000)  returns 0x00 (0000ms, 1128ms total)
T0BFC 001:262 JLINK_WriteReg(R12, 0x00000000)  returns 0x00 (0000ms, 1128ms total)
T0BFC 001:262 JLINK_WriteReg(R13, 0x10000800)  returns 0x00 (0000ms, 1128ms total)
T0BFC 001:262 JLINK_WriteReg(R14, 0x10000001)  returns 0x00 (0000ms, 1128ms total)
T0BFC 001:262 JLINK_WriteReg(R15, 0x10000020)  returns 0x00 (0000ms, 1128ms total)
T0BFC 001:262 JLINK_WriteReg(XPSR, 0x01000000)  returns 0x00 (0000ms, 1128ms total)
T0BFC 001:262 JLINK_WriteReg(MSP, 0x10000800)  returns 0x00 (0000ms, 1128ms total)
T0BFC 001:262 JLINK_WriteReg(PSP, 0x10000800)  returns 0x00 (0000ms, 1128ms total)
T0BFC 001:262 JLINK_WriteReg(CFBP, 0x00000000)  returns 0x00 (0000ms, 1128ms total)
T0BFC 001:262 JLINK_SetBPEx(Addr = 0x10000000, Type = 0xFFFFFFF2)  returns 0x00000003 (0000ms, 1128ms total)
T0BFC 001:262 JLINK_Go() -- CPU_WriteMem(4 bytes @ 0xE0002008) -- CPU_WriteMem(4 bytes @ 0xE000200C) -- CPU_WriteMem(4 bytes @ 0xE0002010) -- CPU_WriteMem(4 bytes @ 0xE0002014) -- CPU_WriteMem(4 bytes @ 0xE0002018) -- CPU_WriteMem(4 bytes @ 0xE000201C) (0009ms, 1128ms total)
T0BFC 001:271 JLINK_IsHalted()  returns FALSE (0002ms, 1137ms total)
T0BFC 001:324 JLINK_IsHalted()  returns TRUE (0006ms, 1137ms total)
T0BFC 001:330 JLINK_ReadReg(R15)  returns 0x10000000 (0000ms, 1137ms total)
T0BFC 001:330 JLINK_ClrBPEx(BPHandle = 0x00000003)  returns 0x00 (0000ms, 1137ms total)
T0BFC 001:330 JLINK_ReadReg(R0)  returns 0x00000000 (0000ms, 1137ms total)
T0BFC 001:331 JLINK_WriteReg(R0, 0x00002000)  returns 0x00 (0000ms, 1137ms total)
T0BFC 001:331 JLINK_WriteReg(R1, 0x00001000)  returns 0x00 (0000ms, 1137ms total)
T0BFC 001:331 JLINK_WriteReg(R2, 0x000000FF)  returns 0x00 (0000ms, 1137ms total)
T0BFC 001:331 JLINK_WriteReg(R3, 0x00000000)  returns 0x00 (0000ms, 1137ms total)
T0BFC 001:331 JLINK_WriteReg(R4, 0x00000000)  returns 0x00 (0000ms, 1137ms total)
T0BFC 001:331 JLINK_WriteReg(R5, 0x00000000)  returns 0x00 (0000ms, 1137ms total)
T0BFC 001:331 JLINK_WriteReg(R6, 0x00000000)  returns 0x00 (0000ms, 1137ms total)
T0BFC 001:331 JLINK_WriteReg(R7, 0x00000000)  returns 0x00 (0000ms, 1137ms total)
T0BFC 001:331 JLINK_WriteReg(R8, 0x00000000)  returns 0x00 (0000ms, 1137ms total)
T0BFC 001:331 JLINK_WriteReg(R9, 0x100001CC)  returns 0x00 (0000ms, 1137ms total)
T0BFC 001:331 JLINK_WriteReg(R10, 0x00000000)  returns 0x00 (0000ms, 1137ms total)
T0BFC 001:331 JLINK_WriteReg(R11, 0x00000000)  returns 0x00 (0000ms, 1137ms total)
T0BFC 001:331 JLINK_WriteReg(R12, 0x00000000)  returns 0x00 (0000ms, 1137ms total)
T0BFC 001:331 JLINK_WriteReg(R13, 0x10000800)  returns 0x00 (0000ms, 1137ms total)
T0BFC 001:331 JLINK_WriteReg(R14, 0x10000001)  returns 0x00 (0000ms, 1137ms total)
T0BFC 001:331 JLINK_WriteReg(R15, 0x10000020)  returns 0x00 (0000ms, 1137ms total)
T0BFC 001:331 JLINK_WriteReg(XPSR, 0x01000000)  returns 0x00 (0000ms, 1137ms total)
T0BFC 001:331 JLINK_WriteReg(MSP, 0x10000800)  returns 0x00 (0000ms, 1137ms total)
T0BFC 001:331 JLINK_WriteReg(PSP, 0x10000800)  returns 0x00 (0000ms, 1137ms total)
T0BFC 001:331 JLINK_WriteReg(CFBP, 0x00000000)  returns 0x00 (0000ms, 1137ms total)
T0BFC 001:331 JLINK_SetBPEx(Addr = 0x10000000, Type = 0xFFFFFFF2)  returns 0x00000004 (0000ms, 1137ms total)
T0BFC 001:331 JLINK_Go() -- CPU_WriteMem(4 bytes @ 0xE0002008) -- CPU_WriteMem(4 bytes @ 0xE000200C) -- CPU_WriteMem(4 bytes @ 0xE0002010) -- CPU_WriteMem(4 bytes @ 0xE0002014) -- CPU_WriteMem(4 bytes @ 0xE0002018) -- CPU_WriteMem(4 bytes @ 0xE000201C) (0010ms, 1137ms total)
T0BFC 001:341 JLINK_IsHalted()  returns FALSE (0001ms, 1147ms total)
T0BFC 001:393 JLINK_IsHalted()  returns TRUE (0005ms, 1147ms total)
T0BFC 001:398 JLINK_ReadReg(R15)  returns 0x10000000 (0000ms, 1147ms total)
T0BFC 001:398 JLINK_ClrBPEx(BPHandle = 0x00000004)  returns 0x00 (0000ms, 1147ms total)
T0BFC 001:398 JLINK_ReadReg(R0)  returns 0x00000000 (0000ms, 1147ms total)
T0BFC 001:398 JLINK_WriteReg(R0, 0x00003000)  returns 0x00 (0000ms, 1147ms total)
T0BFC 001:398 JLINK_WriteReg(R1, 0x00001000)  returns 0x00 (0000ms, 1147ms total)
T0BFC 001:398 JLINK_WriteReg(R2, 0x000000FF)  returns 0x00 (0000ms, 1147ms total)
T0BFC 001:398 JLINK_WriteReg(R3, 0x00000000)  returns 0x00 (0000ms, 1147ms total)
T0BFC 001:398 JLINK_WriteReg(R4, 0x00000000)  returns 0x00 (0000ms, 1147ms total)
T0BFC 001:398 JLINK_WriteReg(R5, 0x00000000)  returns 0x00 (0000ms, 1147ms total)
T0BFC 001:398 JLINK_WriteReg(R6, 0x00000000)  returns 0x00 (0001ms, 1147ms total)
T0BFC 001:399 JLINK_WriteReg(R7, 0x00000000)  returns 0x00 (0000ms, 1148ms total)
T0BFC 001:399 JLINK_WriteReg(R8, 0x00000000)  returns 0x00 (0000ms, 1148ms total)
T0BFC 001:399 JLINK_WriteReg(R9, 0x100001CC)  returns 0x00 (0000ms, 1148ms total)
T0BFC 001:399 JLINK_WriteReg(R10, 0x00000000)  returns 0x00 (0000ms, 1148ms total)
T0BFC 001:399 JLINK_WriteReg(R11, 0x00000000)  returns 0x00 (0000ms, 1148ms total)
T0BFC 001:399 JLINK_WriteReg(R12, 0x00000000)  returns 0x00 (0000ms, 1148ms total)
T0BFC 001:399 JLINK_WriteReg(R13, 0x10000800)  returns 0x00 (0000ms, 1148ms total)
T0BFC 001:399 JLINK_WriteReg(R14, 0x10000001)  returns 0x00 (0000ms, 1148ms total)
T0BFC 001:399 JLINK_WriteReg(R15, 0x10000020)  returns 0x00 (0000ms, 1148ms total)
T0BFC 001:399 JLINK_WriteReg(XPSR, 0x01000000)  returns 0x00 (0000ms, 1148ms total)
T0BFC 001:399 JLINK_WriteReg(MSP, 0x10000800)  returns 0x00 (0000ms, 1148ms total)
T0BFC 001:399 JLINK_WriteReg(PSP, 0x10000800)  returns 0x00 (0000ms, 1148ms total)
T0BFC 001:399 JLINK_WriteReg(CFBP, 0x00000000)  returns 0x00 (0000ms, 1148ms total)
T0BFC 001:399 JLINK_SetBPEx(Addr = 0x10000000, Type = 0xFFFFFFF2)  returns 0x00000005 (0000ms, 1148ms total)
T0BFC 001:399 JLINK_Go() -- CPU_WriteMem(4 bytes @ 0xE0002008) -- CPU_WriteMem(4 bytes @ 0xE000200C) -- CPU_WriteMem(4 bytes @ 0xE0002010) -- CPU_WriteMem(4 bytes @ 0xE0002014) -- CPU_WriteMem(4 bytes @ 0xE0002018) -- CPU_WriteMem(4 bytes @ 0xE000201C) (0010ms, 1148ms total)
T0BFC 001:409 JLINK_IsHalted()  returns FALSE (0001ms, 1158ms total)
T0BFC 001:461 JLINK_IsHalted()  returns TRUE (0006ms, 1158ms total)
T0BFC 001:467 JLINK_ReadReg(R15)  returns 0x10000000 (0000ms, 1158ms total)
T0BFC 001:467 JLINK_ClrBPEx(BPHandle = 0x00000005)  returns 0x00 (0000ms, 1158ms total)
T0BFC 001:467 JLINK_ReadReg(R0)  returns 0x00000000 (0000ms, 1158ms total)
T0BFC 001:468 JLINK_WriteReg(R0, 0x00004000)  returns 0x00 (0000ms, 1158ms total)
T0BFC 001:468 JLINK_WriteReg(R1, 0x00001000)  returns 0x00 (0000ms, 1158ms total)
T0BFC 001:468 JLINK_WriteReg(R2, 0x000000FF)  returns 0x00 (0000ms, 1158ms total)
T0BFC 001:468 JLINK_WriteReg(R3, 0x00000000)  returns 0x00 (0000ms, 1158ms total)
T0BFC 001:468 JLINK_WriteReg(R4, 0x00000000)  returns 0x00 (0000ms, 1158ms total)
T0BFC 001:468 JLINK_WriteReg(R5, 0x00000000)  returns 0x00 (0000ms, 1158ms total)
T0BFC 001:468 JLINK_WriteReg(R6, 0x00000000)  returns 0x00 (0000ms, 1158ms total)
T0BFC 001:468 JLINK_WriteReg(R7, 0x00000000)  returns 0x00 (0000ms, 1158ms total)
T0BFC 001:468 JLINK_WriteReg(R8, 0x00000000)  returns 0x00 (0000ms, 1158ms total)
T0BFC 001:468 JLINK_WriteReg(R9, 0x100001CC)  returns 0x00 (0000ms, 1158ms total)
T0BFC 001:468 JLINK_WriteReg(R10, 0x00000000)  returns 0x00 (0000ms, 1158ms total)
T0BFC 001:468 JLINK_WriteReg(R11, 0x00000000)  returns 0x00 (0000ms, 1158ms total)
T0BFC 001:468 JLINK_WriteReg(R12, 0x00000000)  returns 0x00 (0000ms, 1158ms total)
T0BFC 001:468 JLINK_WriteReg(R13, 0x10000800)  returns 0x00 (0000ms, 1158ms total)
T0BFC 001:468 JLINK_WriteReg(R14, 0x10000001)  returns 0x00 (0000ms, 1158ms total)
T0BFC 001:468 JLINK_WriteReg(R15, 0x10000020)  returns 0x00 (0000ms, 1158ms total)
T0BFC 001:468 JLINK_WriteReg(XPSR, 0x01000000)  returns 0x00 (0001ms, 1158ms total)
T0BFC 001:469 JLINK_WriteReg(MSP, 0x10000800)  returns 0x00 (0000ms, 1159ms total)
T0BFC 001:469 JLINK_WriteReg(PSP, 0x10000800)  returns 0x00 (0000ms, 1159ms total)
T0BFC 001:469 JLINK_WriteReg(CFBP, 0x00000000)  returns 0x00 (0000ms, 1159ms total)
T0BFC 001:469 JLINK_SetBPEx(Addr = 0x10000000, Type = 0xFFFFFFF2)  returns 0x00000006 (0000ms, 1159ms total)
T0BFC 001:469 JLINK_Go() -- CPU_WriteMem(4 bytes @ 0xE0002008) -- CPU_WriteMem(4 bytes @ 0xE000200C) -- CPU_WriteMem(4 bytes @ 0xE0002010) -- CPU_WriteMem(4 bytes @ 0xE0002014) -- CPU_WriteMem(4 bytes @ 0xE0002018) -- CPU_WriteMem(4 bytes @ 0xE000201C) (0009ms, 1159ms total)
T0BFC 001:478 JLINK_IsHalted()  returns FALSE (0001ms, 1168ms total)
T0BFC 001:529 JLINK_IsHalted()  returns TRUE (0006ms, 1168ms total)
T0BFC 001:535 JLINK_ReadReg(R15)  returns 0x10000000 (0000ms, 1168ms total)
T0BFC 001:535 JLINK_ClrBPEx(BPHandle = 0x00000006)  returns 0x00 (0000ms, 1168ms total)
T0BFC 001:535 JLINK_ReadReg(R0)  returns 0x00000000 (0000ms, 1168ms total)
T0BFC 001:536 JLINK_WriteReg(R0, 0x00005000)  returns 0x00 (0000ms, 1168ms total)
T0BFC 001:536 JLINK_WriteReg(R1, 0x00001000)  returns 0x00 (0000ms, 1168ms total)
T0BFC 001:536 JLINK_WriteReg(R2, 0x000000FF)  returns 0x00 (0000ms, 1168ms total)
T0BFC 001:536 JLINK_WriteReg(R3, 0x00000000)  returns 0x00 (0000ms, 1168ms total)
T0BFC 001:536 JLINK_WriteReg(R4, 0x00000000)  returns 0x00 (0000ms, 1168ms total)
T0BFC 001:536 JLINK_WriteReg(R5, 0x00000000)  returns 0x00 (0000ms, 1168ms total)
T0BFC 001:536 JLINK_WriteReg(R6, 0x00000000)  returns 0x00 (0000ms, 1168ms total)
T0BFC 001:536 JLINK_WriteReg(R7, 0x00000000)  returns 0x00 (0000ms, 1168ms total)
T0BFC 001:536 JLINK_WriteReg(R8, 0x00000000)  returns 0x00 (0000ms, 1168ms total)
T0BFC 001:536 JLINK_WriteReg(R9, 0x100001CC)  returns 0x00 (0000ms, 1168ms total)
T0BFC 001:536 JLINK_WriteReg(R10, 0x00000000)  returns 0x00 (0000ms, 1168ms total)
T0BFC 001:536 JLINK_WriteReg(R11, 0x00000000)  returns 0x00 (0000ms, 1168ms total)
T0BFC 001:536 JLINK_WriteReg(R12, 0x00000000)  returns 0x00 (0000ms, 1168ms total)
T0BFC 001:536 JLINK_WriteReg(R13, 0x10000800)  returns 0x00 (0000ms, 1168ms total)
T0BFC 001:536 JLINK_WriteReg(R14, 0x10000001)  returns 0x00 (0000ms, 1168ms total)
T0BFC 001:536 JLINK_WriteReg(R15, 0x10000020)  returns 0x00 (0000ms, 1168ms total)
T0BFC 001:536 JLINK_WriteReg(XPSR, 0x01000000)  returns 0x00 (0000ms, 1168ms total)
T0BFC 001:536 JLINK_WriteReg(MSP, 0x10000800)  returns 0x00 (0000ms, 1168ms total)
T0BFC 001:536 JLINK_WriteReg(PSP, 0x10000800)  returns 0x00 (0000ms, 1168ms total)
T0BFC 001:536 JLINK_WriteReg(CFBP, 0x00000000)  returns 0x00 (0000ms, 1168ms total)
T0BFC 001:536 JLINK_SetBPEx(Addr = 0x10000000, Type = 0xFFFFFFF2)  returns 0x00000007 (0000ms, 1168ms total)
T0BFC 001:536 JLINK_Go() -- CPU_WriteMem(4 bytes @ 0xE0002008) -- CPU_WriteMem(4 bytes @ 0xE000200C) -- CPU_WriteMem(4 bytes @ 0xE0002010) -- CPU_WriteMem(4 bytes @ 0xE0002014) -- CPU_WriteMem(4 bytes @ 0xE0002018) -- CPU_WriteMem(4 bytes @ 0xE000201C) (0010ms, 1168ms total)
T0BFC 001:546 JLINK_IsHalted()  returns FALSE (0001ms, 1178ms total)
T0BFC 001:598 JLINK_IsHalted()  returns TRUE (0006ms, 1178ms total)
T0BFC 001:604 JLINK_ReadReg(R15)  returns 0x10000000 (0000ms, 1178ms total)
T0BFC 001:604 JLINK_ClrBPEx(BPHandle = 0x00000007)  returns 0x00 (0000ms, 1178ms total)
T0BFC 001:604 JLINK_ReadReg(R0)  returns 0x00000000 (0000ms, 1178ms total)
T0BFC 001:606 JLINK_WriteReg(R0, 0x00006000)  returns 0x00 (0000ms, 1178ms total)
T0BFC 001:606 JLINK_WriteReg(R1, 0x00001000)  returns 0x00 (0000ms, 1178ms total)
T0BFC 001:606 JLINK_WriteReg(R2, 0x000000FF)  returns 0x00 (0000ms, 1178ms total)
T0BFC 001:606 JLINK_WriteReg(R3, 0x00000000)  returns 0x00 (0000ms, 1178ms total)
T0BFC 001:606 JLINK_WriteReg(R4, 0x00000000)  returns 0x00 (0000ms, 1178ms total)
T0BFC 001:606 JLINK_WriteReg(R5, 0x00000000)  returns 0x00 (0000ms, 1178ms total)
T0BFC 001:606 JLINK_WriteReg(R6, 0x00000000)  returns 0x00 (0000ms, 1178ms total)
T0BFC 001:606 JLINK_WriteReg(R7, 0x00000000)  returns 0x00 (0000ms, 1178ms total)
T0BFC 001:606 JLINK_WriteReg(R8, 0x00000000)  returns 0x00 (0000ms, 1178ms total)
T0BFC 001:606 JLINK_WriteReg(R9, 0x100001CC)  returns 0x00 (0000ms, 1178ms total)
T0BFC 001:606 JLINK_WriteReg(R10, 0x00000000)  returns 0x00 (0000ms, 1178ms total)
T0BFC 001:606 JLINK_WriteReg(R11, 0x00000000)  returns 0x00 (0000ms, 1178ms total)
T0BFC 001:606 JLINK_WriteReg(R12, 0x00000000)  returns 0x00 (0000ms, 1178ms total)
T0BFC 001:606 JLINK_WriteReg(R13, 0x10000800)  returns 0x00 (0000ms, 1178ms total)
T0BFC 001:606 JLINK_WriteReg(R14, 0x10000001)  returns 0x00 (0000ms, 1178ms total)
T0BFC 001:606 JLINK_WriteReg(R15, 0x10000020)  returns 0x00 (0001ms, 1178ms total)
T0BFC 001:607 JLINK_WriteReg(XPSR, 0x01000000)  returns 0x00 (0000ms, 1179ms total)
T0BFC 001:607 JLINK_WriteReg(MSP, 0x10000800)  returns 0x00 (0000ms, 1179ms total)
T0BFC 001:607 JLINK_WriteReg(PSP, 0x10000800)  returns 0x00 (0000ms, 1179ms total)
T0BFC 001:607 JLINK_WriteReg(CFBP, 0x00000000)  returns 0x00 (0000ms, 1179ms total)
T0BFC 001:607 JLINK_SetBPEx(Addr = 0x10000000, Type = 0xFFFFFFF2)  returns 0x00000008 (0000ms, 1179ms total)
T0BFC 001:607 JLINK_Go() -- CPU_WriteMem(4 bytes @ 0xE0002008) -- CPU_WriteMem(4 bytes @ 0xE000200C) -- CPU_WriteMem(4 bytes @ 0xE0002010) -- CPU_WriteMem(4 bytes @ 0xE0002014) -- CPU_WriteMem(4 bytes @ 0xE0002018) -- CPU_WriteMem(4 bytes @ 0xE000201C) (0008ms, 1179ms total)
T0BFC 001:615 JLINK_IsHalted()  returns FALSE (0001ms, 1187ms total)
T0BFC 001:667 JLINK_IsHalted()  returns TRUE (0006ms, 1187ms total)
T0BFC 001:673 JLINK_ReadReg(R15)  returns 0x10000000 (0000ms, 1187ms total)
T0BFC 001:673 JLINK_ClrBPEx(BPHandle = 0x00000008)  returns 0x00 (0000ms, 1187ms total)
T0BFC 001:673 JLINK_ReadReg(R0)  returns 0x00000000 (0000ms, 1187ms total)
T0BFC 001:674 JLINK_WriteReg(R0, 0x00007000)  returns 0x00 (0000ms, 1187ms total)
T0BFC 001:674 JLINK_WriteReg(R1, 0x00001000)  returns 0x00 (0000ms, 1187ms total)
T0BFC 001:674 JLINK_WriteReg(R2, 0x000000FF)  returns 0x00 (0000ms, 1187ms total)
T0BFC 001:674 JLINK_WriteReg(R3, 0x00000000)  returns 0x00 (0000ms, 1187ms total)
T0BFC 001:674 JLINK_WriteReg(R4, 0x00000000)  returns 0x00 (0000ms, 1187ms total)
T0BFC 001:674 JLINK_WriteReg(R5, 0x00000000)  returns 0x00 (0000ms, 1187ms total)
T0BFC 001:674 JLINK_WriteReg(R6, 0x00000000)  returns 0x00 (0000ms, 1187ms total)
T0BFC 001:674 JLINK_WriteReg(R7, 0x00000000)  returns 0x00 (0000ms, 1187ms total)
T0BFC 001:674 JLINK_WriteReg(R8, 0x00000000)  returns 0x00 (0000ms, 1187ms total)
T0BFC 001:674 JLINK_WriteReg(R9, 0x100001CC)  returns 0x00 (0000ms, 1187ms total)
T0BFC 001:674 JLINK_WriteReg(R10, 0x00000000)  returns 0x00 (0000ms, 1187ms total)
T0BFC 001:674 JLINK_WriteReg(R11, 0x00000000)  returns 0x00 (0000ms, 1187ms total)
T0BFC 001:674 JLINK_WriteReg(R12, 0x00000000)  returns 0x00 (0000ms, 1187ms total)
T0BFC 001:674 JLINK_WriteReg(R13, 0x10000800)  returns 0x00 (0000ms, 1187ms total)
T0BFC 001:674 JLINK_WriteReg(R14, 0x10000001)  returns 0x00 (0000ms, 1187ms total)
T0BFC 001:674 JLINK_WriteReg(R15, 0x10000020)  returns 0x00 (0000ms, 1187ms total)
T0BFC 001:674 JLINK_WriteReg(XPSR, 0x01000000)  returns 0x00 (0000ms, 1187ms total)
T0BFC 001:674 JLINK_WriteReg(MSP, 0x10000800)  returns 0x00 (0000ms, 1187ms total)
T0BFC 001:674 JLINK_WriteReg(PSP, 0x10000800)  returns 0x00 (0000ms, 1187ms total)
T0BFC 001:674 JLINK_WriteReg(CFBP, 0x00000000)  returns 0x00 (0001ms, 1187ms total)
T0BFC 001:675 JLINK_SetBPEx(Addr = 0x10000000, Type = 0xFFFFFFF2)  returns 0x00000009 (0000ms, 1188ms total)
T0BFC 001:675 JLINK_Go() -- CPU_WriteMem(4 bytes @ 0xE0002008) -- CPU_WriteMem(4 bytes @ 0xE000200C) -- CPU_WriteMem(4 bytes @ 0xE0002010) -- CPU_WriteMem(4 bytes @ 0xE0002014) -- CPU_WriteMem(4 bytes @ 0xE0002018) -- CPU_WriteMem(4 bytes @ 0xE000201C) (0009ms, 1188ms total)
T0BFC 001:684 JLINK_IsHalted()  returns FALSE (0001ms, 1197ms total)
T0BFC 001:735 JLINK_IsHalted()  returns TRUE (0006ms, 1197ms total)
T0BFC 001:741 JLINK_ReadReg(R15)  returns 0x10000000 (0000ms, 1197ms total)
T0BFC 001:741 JLINK_ClrBPEx(BPHandle = 0x00000009)  returns 0x00 (0000ms, 1197ms total)
T0BFC 001:741 JLINK_ReadReg(R0)  returns 0x00000000 (0000ms, 1197ms total)
T0BFC 001:742 JLINK_WriteReg(R0, 0x00008000)  returns 0x00 (0000ms, 1197ms total)
T0BFC 001:742 JLINK_WriteReg(R1, 0x00001000)  returns 0x00 (0000ms, 1197ms total)
T0BFC 001:742 JLINK_WriteReg(R2, 0x000000FF)  returns 0x00 (0000ms, 1197ms total)
T0BFC 001:742 JLINK_WriteReg(R3, 0x00000000)  returns 0x00 (0000ms, 1197ms total)
T0BFC 001:742 JLINK_WriteReg(R4, 0x00000000)  returns 0x00 (0000ms, 1197ms total)
T0BFC 001:742 JLINK_WriteReg(R5, 0x00000000)  returns 0x00 (0000ms, 1197ms total)
T0BFC 001:742 JLINK_WriteReg(R6, 0x00000000)  returns 0x00 (0000ms, 1197ms total)
T0BFC 001:742 JLINK_WriteReg(R7, 0x00000000)  returns 0x00 (0000ms, 1197ms total)
T0BFC 001:742 JLINK_WriteReg(R8, 0x00000000)  returns 0x00 (0000ms, 1197ms total)
T0BFC 001:742 JLINK_WriteReg(R9, 0x100001CC)  returns 0x00 (0000ms, 1197ms total)
T0BFC 001:742 JLINK_WriteReg(R10, 0x00000000)  returns 0x00 (0000ms, 1197ms total)
T0BFC 001:742 JLINK_WriteReg(R11, 0x00000000)  returns 0x00 (0000ms, 1197ms total)
T0BFC 001:742 JLINK_WriteReg(R12, 0x00000000)  returns 0x00 (0000ms, 1197ms total)
T0BFC 001:742 JLINK_WriteReg(R13, 0x10000800)  returns 0x00 (0000ms, 1197ms total)
T0BFC 001:742 JLINK_WriteReg(R14, 0x10000001)  returns 0x00 (0000ms, 1197ms total)
T0BFC 001:742 JLINK_WriteReg(R15, 0x10000020)  returns 0x00 (0000ms, 1197ms total)
T0BFC 001:742 JLINK_WriteReg(XPSR, 0x01000000)  returns 0x00 (0000ms, 1197ms total)
T0BFC 001:742 JLINK_WriteReg(MSP, 0x10000800)  returns 0x00 (0000ms, 1197ms total)
T0BFC 001:742 JLINK_WriteReg(PSP, 0x10000800)  returns 0x00 (0000ms, 1197ms total)
T0BFC 001:742 JLINK_WriteReg(CFBP, 0x00000000)  returns 0x00 (0000ms, 1197ms total)
T0BFC 001:742 JLINK_SetBPEx(Addr = 0x10000000, Type = 0xFFFFFFF2)  returns 0x0000000A (0000ms, 1197ms total)
T0BFC 001:742 JLINK_Go() -- CPU_WriteMem(4 bytes @ 0xE0002008) -- CPU_WriteMem(4 bytes @ 0xE000200C) -- CPU_WriteMem(4 bytes @ 0xE0002010) -- CPU_WriteMem(4 bytes @ 0xE0002014) -- CPU_WriteMem(4 bytes @ 0xE0002018) -- CPU_WriteMem(4 bytes @ 0xE000201C) (0010ms, 1197ms total)
T0BFC 001:752 JLINK_IsHalted()  returns FALSE (0001ms, 1207ms total)
T0BFC 001:804 JLINK_IsHalted()  returns TRUE (0006ms, 1207ms total)
T0BFC 001:810 JLINK_ReadReg(R15)  returns 0x10000000 (0000ms, 1207ms total)
T0BFC 001:810 JLINK_ClrBPEx(BPHandle = 0x0000000A)  returns 0x00 (0000ms, 1207ms total)
T0BFC 001:810 JLINK_ReadReg(R0)  returns 0x00000000 (0000ms, 1207ms total)
T0BFC 001:811 JLINK_WriteReg(R0, 0x00009000)  returns 0x00 (0000ms, 1207ms total)
T0BFC 001:811 JLINK_WriteReg(R1, 0x00001000)  returns 0x00 (0000ms, 1207ms total)
T0BFC 001:811 JLINK_WriteReg(R2, 0x000000FF)  returns 0x00 (0000ms, 1207ms total)
T0BFC 001:811 JLINK_WriteReg(R3, 0x00000000)  returns 0x00 (0000ms, 1207ms total)
T0BFC 001:811 JLINK_WriteReg(R4, 0x00000000)  returns 0x00 (0000ms, 1207ms total)
T0BFC 001:811 JLINK_WriteReg(R5, 0x00000000)  returns 0x00 (0000ms, 1207ms total)
T0BFC 001:811 JLINK_WriteReg(R6, 0x00000000)  returns 0x00 (0000ms, 1207ms total)
T0BFC 001:811 JLINK_WriteReg(R7, 0x00000000)  returns 0x00 (0000ms, 1207ms total)
T0BFC 001:811 JLINK_WriteReg(R8, 0x00000000)  returns 0x00 (0000ms, 1207ms total)
T0BFC 001:811 JLINK_WriteReg(R9, 0x100001CC)  returns 0x00 (0000ms, 1207ms total)
T0BFC 001:811 JLINK_WriteReg(R10, 0x00000000)  returns 0x00 (0000ms, 1207ms total)
T0BFC 001:811 JLINK_WriteReg(R11, 0x00000000)  returns 0x00 (0000ms, 1207ms total)
T0BFC 001:811 JLINK_WriteReg(R12, 0x00000000)  returns 0x00 (0000ms, 1207ms total)
T0BFC 001:811 JLINK_WriteReg(R13, 0x10000800)  returns 0x00 (0000ms, 1207ms total)
T0BFC 001:811 JLINK_WriteReg(R14, 0x10000001)  returns 0x00 (0001ms, 1207ms total)
T0BFC 001:812 JLINK_WriteReg(R15, 0x10000020)  returns 0x00 (0000ms, 1208ms total)
T0BFC 001:812 JLINK_WriteReg(XPSR, 0x01000000)  returns 0x00 (0000ms, 1208ms total)
T0BFC 001:812 JLINK_WriteReg(MSP, 0x10000800)  returns 0x00 (0000ms, 1208ms total)
T0BFC 001:812 JLINK_WriteReg(PSP, 0x10000800)  returns 0x00 (0000ms, 1208ms total)
T0BFC 001:812 JLINK_WriteReg(CFBP, 0x00000000)  returns 0x00 (0000ms, 1208ms total)
T0BFC 001:812 JLINK_SetBPEx(Addr = 0x10000000, Type = 0xFFFFFFF2)  returns 0x0000000B (0000ms, 1208ms total)
T0BFC 001:812 JLINK_Go() -- CPU_WriteMem(4 bytes @ 0xE0002008) -- CPU_WriteMem(4 bytes @ 0xE000200C) -- CPU_WriteMem(4 bytes @ 0xE0002010) -- CPU_WriteMem(4 bytes @ 0xE0002014) -- CPU_WriteMem(4 bytes @ 0xE0002018) -- CPU_WriteMem(4 bytes @ 0xE000201C) (0009ms, 1208ms total)
T0BFC 001:821 JLINK_IsHalted()  returns FALSE (0001ms, 1217ms total)
T0BFC 001:873 JLINK_IsHalted()  returns TRUE (0006ms, 1217ms total)
T0BFC 001:879 JLINK_ReadReg(R15)  returns 0x10000000 (0000ms, 1217ms total)
T0BFC 001:879 JLINK_ClrBPEx(BPHandle = 0x0000000B)  returns 0x00 (0000ms, 1217ms total)
T0BFC 001:879 JLINK_ReadReg(R0)  returns 0x00000000 (0000ms, 1217ms total)
T0BFC 001:880 JLINK_WriteReg(R0, 0x0000A000)  returns 0x00 (0000ms, 1217ms total)
T0BFC 001:880 JLINK_WriteReg(R1, 0x00001000)  returns 0x00 (0000ms, 1217ms total)
T0BFC 001:880 JLINK_WriteReg(R2, 0x000000FF)  returns 0x00 (0000ms, 1217ms total)
T0BFC 001:880 JLINK_WriteReg(R3, 0x00000000)  returns 0x00 (0000ms, 1217ms total)
T0BFC 001:880 JLINK_WriteReg(R4, 0x00000000)  returns 0x00 (0000ms, 1217ms total)
T0BFC 001:880 JLINK_WriteReg(R5, 0x00000000)  returns 0x00 (0000ms, 1217ms total)
T0BFC 001:880 JLINK_WriteReg(R6, 0x00000000)  returns 0x00 (0000ms, 1217ms total)
T0BFC 001:880 JLINK_WriteReg(R7, 0x00000000)  returns 0x00 (0000ms, 1217ms total)
T0BFC 001:880 JLINK_WriteReg(R8, 0x00000000)  returns 0x00 (0000ms, 1217ms total)
T0BFC 001:880 JLINK_WriteReg(R9, 0x100001CC)  returns 0x00 (0000ms, 1217ms total)
T0BFC 001:880 JLINK_WriteReg(R10, 0x00000000)  returns 0x00 (0000ms, 1217ms total)
T0BFC 001:880 JLINK_WriteReg(R11, 0x00000000)  returns 0x00 (0000ms, 1217ms total)
T0BFC 001:880 JLINK_WriteReg(R12, 0x00000000)  returns 0x00 (0000ms, 1217ms total)
T0BFC 001:880 JLINK_WriteReg(R13, 0x10000800)  returns 0x00 (0000ms, 1217ms total)
T0BFC 001:880 JLINK_WriteReg(R14, 0x10000001)  returns 0x00 (0000ms, 1217ms total)
T0BFC 001:880 JLINK_WriteReg(R15, 0x10000020)  returns 0x00 (0000ms, 1217ms total)
T0BFC 001:880 JLINK_WriteReg(XPSR, 0x01000000)  returns 0x00 (0000ms, 1217ms total)
T0BFC 001:880 JLINK_WriteReg(MSP, 0x10000800)  returns 0x00 (0000ms, 1217ms total)
T0BFC 001:880 JLINK_WriteReg(PSP, 0x10000800)  returns 0x00 (0001ms, 1217ms total)
T0BFC 001:881 JLINK_WriteReg(CFBP, 0x00000000)  returns 0x00 (0000ms, 1218ms total)
T0BFC 001:881 JLINK_SetBPEx(Addr = 0x10000000, Type = 0xFFFFFFF2)  returns 0x0000000C (0000ms, 1218ms total)
T0BFC 001:881 JLINK_Go() -- CPU_WriteMem(4 bytes @ 0xE0002008) -- CPU_WriteMem(4 bytes @ 0xE000200C) -- CPU_WriteMem(4 bytes @ 0xE0002010) -- CPU_WriteMem(4 bytes @ 0xE0002014) -- CPU_WriteMem(4 bytes @ 0xE0002018) -- CPU_WriteMem(4 bytes @ 0xE000201C) (0009ms, 1218ms total)
T0BFC 001:890 JLINK_IsHalted()  returns FALSE (0001ms, 1227ms total)
T0BFC 001:941 JLINK_IsHalted()  returns TRUE (0006ms, 1227ms total)
T0BFC 001:947 JLINK_ReadReg(R15)  returns 0x10000000 (0000ms, 1227ms total)
T0BFC 001:947 JLINK_ClrBPEx(BPHandle = 0x0000000C)  returns 0x00 (0000ms, 1227ms total)
T0BFC 001:947 JLINK_ReadReg(R0)  returns 0x00000000 (0000ms, 1227ms total)
T0BFC 001:947 JLINK_WriteReg(R0, 0x0000B000)  returns 0x00 (0000ms, 1227ms total)
T0BFC 001:947 JLINK_WriteReg(R1, 0x00001000)  returns 0x00 (0000ms, 1227ms total)
T0BFC 001:947 JLINK_WriteReg(R2, 0x000000FF)  returns 0x00 (0000ms, 1227ms total)
T0BFC 001:947 JLINK_WriteReg(R3, 0x00000000)  returns 0x00 (0000ms, 1227ms total)
T0BFC 001:947 JLINK_WriteReg(R4, 0x00000000)  returns 0x00 (0000ms, 1227ms total)
T0BFC 001:948 JLINK_WriteReg(R5, 0x00000000)  returns 0x00 (0000ms, 1227ms total)
T0BFC 001:948 JLINK_WriteReg(R6, 0x00000000)  returns 0x00 (0000ms, 1227ms total)
T0BFC 001:948 JLINK_WriteReg(R7, 0x00000000)  returns 0x00 (0000ms, 1227ms total)
T0BFC 001:948 JLINK_WriteReg(R8, 0x00000000)  returns 0x00 (0000ms, 1227ms total)
T0BFC 001:948 JLINK_WriteReg(R9, 0x100001CC)  returns 0x00 (0000ms, 1227ms total)
T0BFC 001:948 JLINK_WriteReg(R10, 0x00000000)  returns 0x00 (0000ms, 1227ms total)
T0BFC 001:948 JLINK_WriteReg(R11, 0x00000000)  returns 0x00 (0000ms, 1227ms total)
T0BFC 001:948 JLINK_WriteReg(R12, 0x00000000)  returns 0x00 (0000ms, 1227ms total)
T0BFC 001:948 JLINK_WriteReg(R13, 0x10000800)  returns 0x00 (0000ms, 1227ms total)
T0BFC 001:948 JLINK_WriteReg(R14, 0x10000001)  returns 0x00 (0000ms, 1227ms total)
T0BFC 001:948 JLINK_WriteReg(R15, 0x10000020)  returns 0x00 (0000ms, 1227ms total)
T0BFC 001:948 JLINK_WriteReg(XPSR, 0x01000000)  returns 0x00 (0000ms, 1227ms total)
T0BFC 001:948 JLINK_WriteReg(MSP, 0x10000800)  returns 0x00 (0000ms, 1227ms total)
T0BFC 001:948 JLINK_WriteReg(PSP, 0x10000800)  returns 0x00 (0000ms, 1227ms total)
T0BFC 001:948 JLINK_WriteReg(CFBP, 0x00000000)  returns 0x00 (0000ms, 1227ms total)
T0BFC 001:948 JLINK_SetBPEx(Addr = 0x10000000, Type = 0xFFFFFFF2)  returns 0x0000000D (0000ms, 1227ms total)
T0BFC 001:948 JLINK_Go() -- CPU_WriteMem(4 bytes @ 0xE0002008) -- CPU_WriteMem(4 bytes @ 0xE000200C) -- CPU_WriteMem(4 bytes @ 0xE0002010) -- CPU_WriteMem(4 bytes @ 0xE0002014) -- CPU_WriteMem(4 bytes @ 0xE0002018) -- CPU_WriteMem(4 bytes @ 0xE000201C) (0011ms, 1227ms total)
T0BFC 001:959 JLINK_IsHalted()  returns FALSE (0001ms, 1238ms total)
T0BFC 002:011 JLINK_IsHalted()  returns TRUE (0006ms, 1238ms total)
T0BFC 002:018 JLINK_ReadReg(R15)  returns 0x10000000 (0000ms, 1238ms total)
T0BFC 002:018 JLINK_ClrBPEx(BPHandle = 0x0000000D)  returns 0x00 (0000ms, 1238ms total)
T0BFC 002:018 JLINK_ReadReg(R0)  returns 0x00000000 (0000ms, 1238ms total)
T0BFC 002:019 JLINK_WriteReg(R0, 0x0000C000)  returns 0x00 (0000ms, 1238ms total)
T0BFC 002:019 JLINK_WriteReg(R1, 0x00001000)  returns 0x00 (0000ms, 1238ms total)
T0BFC 002:019 JLINK_WriteReg(R2, 0x000000FF)  returns 0x00 (0000ms, 1238ms total)
T0BFC 002:019 JLINK_WriteReg(R3, 0x00000000)  returns 0x00 (0000ms, 1238ms total)
T0BFC 002:019 JLINK_WriteReg(R4, 0x00000000)  returns 0x00 (0000ms, 1238ms total)
T0BFC 002:019 JLINK_WriteReg(R5, 0x00000000)  returns 0x00 (0000ms, 1238ms total)
T0BFC 002:019 JLINK_WriteReg(R6, 0x00000000)  returns 0x00 (0000ms, 1238ms total)
T0BFC 002:019 JLINK_WriteReg(R7, 0x00000000)  returns 0x00 (0000ms, 1238ms total)
T0BFC 002:019 JLINK_WriteReg(R8, 0x00000000)  returns 0x00 (0000ms, 1238ms total)
T0BFC 002:019 JLINK_WriteReg(R9, 0x100001CC)  returns 0x00 (0000ms, 1238ms total)
T0BFC 002:019 JLINK_WriteReg(R10, 0x00000000)  returns 0x00 (0000ms, 1238ms total)
T0BFC 002:019 JLINK_WriteReg(R11, 0x00000000)  returns 0x00 (0000ms, 1238ms total)
T0BFC 002:019 JLINK_WriteReg(R12, 0x00000000)  returns 0x00 (0000ms, 1238ms total)
T0BFC 002:019 JLINK_WriteReg(R13, 0x10000800)  returns 0x00 (0001ms, 1238ms total)
T0BFC 002:020 JLINK_WriteReg(R14, 0x10000001)  returns 0x00 (0000ms, 1239ms total)
T0BFC 002:021 JLINK_WriteReg(R15, 0x10000020)  returns 0x00 (0000ms, 1240ms total)
T0BFC 002:021 JLINK_WriteReg(XPSR, 0x01000000)  returns 0x00 (0000ms, 1240ms total)
T0BFC 002:021 JLINK_WriteReg(MSP, 0x10000800)  returns 0x00 (0000ms, 1240ms total)
T0BFC 002:022 JLINK_WriteReg(PSP, 0x10000800)  returns 0x00 (0000ms, 1240ms total)
T0BFC 002:022 JLINK_WriteReg(CFBP, 0x00000000)  returns 0x00 (0000ms, 1240ms total)
T0BFC 002:022 JLINK_SetBPEx(Addr = 0x10000000, Type = 0xFFFFFFF2)  returns 0x0000000E (0000ms, 1240ms total)
T0BFC 002:022 JLINK_Go() -- CPU_WriteMem(4 bytes @ 0xE0002008) -- CPU_WriteMem(4 bytes @ 0xE000200C) -- CPU_WriteMem(4 bytes @ 0xE0002010) -- CPU_WriteMem(4 bytes @ 0xE0002014) -- CPU_WriteMem(4 bytes @ 0xE0002018) -- CPU_WriteMem(4 bytes @ 0xE000201C) (0009ms, 1240ms total)
T0BFC 002:031 JLINK_IsHalted()  returns FALSE (0001ms, 1249ms total)
T0BFC 002:083 JLINK_IsHalted()  returns TRUE (0006ms, 1249ms total)
T0BFC 002:089 JLINK_ReadReg(R15)  returns 0x10000000 (0000ms, 1249ms total)
T0BFC 002:089 JLINK_ClrBPEx(BPHandle = 0x0000000E)  returns 0x00 (0000ms, 1249ms total)
T0BFC 002:089 JLINK_ReadReg(R0)  returns 0x00000000 (0000ms, 1249ms total)
T0BFC 002:090 JLINK_WriteReg(R0, 0x0000D000)  returns 0x00 (0000ms, 1249ms total)
T0BFC 002:090 JLINK_WriteReg(R1, 0x00001000)  returns 0x00 (0000ms, 1249ms total)
T0BFC 002:090 JLINK_WriteReg(R2, 0x000000FF)  returns 0x00 (0000ms, 1249ms total)
T0BFC 002:090 JLINK_WriteReg(R3, 0x00000000)  returns 0x00 (0000ms, 1249ms total)
T0BFC 002:090 JLINK_WriteReg(R4, 0x00000000)  returns 0x00 (0000ms, 1249ms total)
T0BFC 002:090 JLINK_WriteReg(R5, 0x00000000)  returns 0x00 (0000ms, 1249ms total)
T0BFC 002:090 JLINK_WriteReg(R6, 0x00000000)  returns 0x00 (0000ms, 1249ms total)
T0BFC 002:090 JLINK_WriteReg(R7, 0x00000000)  returns 0x00 (0000ms, 1249ms total)
T0BFC 002:090 JLINK_WriteReg(R8, 0x00000000)  returns 0x00 (0000ms, 1249ms total)
T0BFC 002:090 JLINK_WriteReg(R9, 0x100001CC)  returns 0x00 (0000ms, 1249ms total)
T0BFC 002:090 JLINK_WriteReg(R10, 0x00000000)  returns 0x00 (0000ms, 1249ms total)
T0BFC 002:090 JLINK_WriteReg(R11, 0x00000000)  returns 0x00 (0000ms, 1249ms total)
T0BFC 002:090 JLINK_WriteReg(R12, 0x00000000)  returns 0x00 (0000ms, 1249ms total)
T0BFC 002:090 JLINK_WriteReg(R13, 0x10000800)  returns 0x00 (0000ms, 1249ms total)
T0BFC 002:090 JLINK_WriteReg(R14, 0x10000001)  returns 0x00 (0000ms, 1249ms total)
T0BFC 002:090 JLINK_WriteReg(R15, 0x10000020)  returns 0x00 (0000ms, 1249ms total)
T0BFC 002:090 JLINK_WriteReg(XPSR, 0x01000000)  returns 0x00 (0000ms, 1249ms total)
T0BFC 002:090 JLINK_WriteReg(MSP, 0x10000800)  returns 0x00 (0000ms, 1249ms total)
T0BFC 002:090 JLINK_WriteReg(PSP, 0x10000800)  returns 0x00 (0000ms, 1249ms total)
T0BFC 002:090 JLINK_WriteReg(CFBP, 0x00000000)  returns 0x00 (0000ms, 1249ms total)
T0BFC 002:090 JLINK_SetBPEx(Addr = 0x10000000, Type = 0xFFFFFFF2)  returns 0x0000000F (0000ms, 1249ms total)
T0BFC 002:090 JLINK_Go() -- CPU_WriteMem(4 bytes @ 0xE0002008) -- CPU_WriteMem(4 bytes @ 0xE000200C) -- CPU_WriteMem(4 bytes @ 0xE0002010) -- CPU_WriteMem(4 bytes @ 0xE0002014) -- CPU_WriteMem(4 bytes @ 0xE0002018) -- CPU_WriteMem(4 bytes @ 0xE000201C) (0010ms, 1249ms total)
T0BFC 002:100 JLINK_IsHalted()  returns FALSE (0001ms, 1259ms total)
T0BFC 002:151 JLINK_IsHalted()  returns TRUE (0007ms, 1259ms total)
T0BFC 002:158 JLINK_ReadReg(R15)  returns 0x10000000 (0000ms, 1259ms total)
T0BFC 002:158 JLINK_ClrBPEx(BPHandle = 0x0000000F)  returns 0x00 (0000ms, 1259ms total)
T0BFC 002:158 JLINK_ReadReg(R0)  returns 0x00000000 (0000ms, 1259ms total)
T0BFC 002:158 JLINK_WriteReg(R0, 0x0000E000)  returns 0x00 (0000ms, 1259ms total)
T0BFC 002:158 JLINK_WriteReg(R1, 0x00001000)  returns 0x00 (0000ms, 1259ms total)
T0BFC 002:158 JLINK_WriteReg(R2, 0x000000FF)  returns 0x00 (0000ms, 1259ms total)
T0BFC 002:158 JLINK_WriteReg(R3, 0x00000000)  returns 0x00 (0001ms, 1259ms total)
T0BFC 002:159 JLINK_WriteReg(R4, 0x00000000)  returns 0x00 (0000ms, 1260ms total)
T0BFC 002:159 JLINK_WriteReg(R5, 0x00000000)  returns 0x00 (0000ms, 1260ms total)
T0BFC 002:159 JLINK_WriteReg(R6, 0x00000000)  returns 0x00 (0000ms, 1260ms total)
T0BFC 002:159 JLINK_WriteReg(R7, 0x00000000)  returns 0x00 (0000ms, 1260ms total)
T0BFC 002:159 JLINK_WriteReg(R8, 0x00000000)  returns 0x00 (0000ms, 1260ms total)
T0BFC 002:159 JLINK_WriteReg(R9, 0x100001CC)  returns 0x00 (0000ms, 1260ms total)
T0BFC 002:159 JLINK_WriteReg(R10, 0x00000000)  returns 0x00 (0000ms, 1260ms total)
T0BFC 002:159 JLINK_WriteReg(R11, 0x00000000)  returns 0x00 (0000ms, 1260ms total)
T0BFC 002:159 JLINK_WriteReg(R12, 0x00000000)  returns 0x00 (0000ms, 1260ms total)
T0BFC 002:159 JLINK_WriteReg(R13, 0x10000800)  returns 0x00 (0000ms, 1260ms total)
T0BFC 002:159 JLINK_WriteReg(R14, 0x10000001)  returns 0x00 (0000ms, 1260ms total)
T0BFC 002:159 JLINK_WriteReg(R15, 0x10000020)  returns 0x00 (0000ms, 1260ms total)
T0BFC 002:159 JLINK_WriteReg(XPSR, 0x01000000)  returns 0x00 (0000ms, 1260ms total)
T0BFC 002:159 JLINK_WriteReg(MSP, 0x10000800)  returns 0x00 (0000ms, 1260ms total)
T0BFC 002:159 JLINK_WriteReg(PSP, 0x10000800)  returns 0x00 (0000ms, 1260ms total)
T0BFC 002:159 JLINK_WriteReg(CFBP, 0x00000000)  returns 0x00 (0000ms, 1260ms total)
T0BFC 002:159 JLINK_SetBPEx(Addr = 0x10000000, Type = 0xFFFFFFF2)  returns 0x00000010 (0000ms, 1260ms total)
T0BFC 002:159 JLINK_Go() -- CPU_WriteMem(4 bytes @ 0xE0002008) -- CPU_WriteMem(4 bytes @ 0xE000200C) -- CPU_WriteMem(4 bytes @ 0xE0002010) -- CPU_WriteMem(4 bytes @ 0xE0002014) -- CPU_WriteMem(4 bytes @ 0xE0002018) -- CPU_WriteMem(4 bytes @ 0xE000201C) (0009ms, 1260ms total)
T0BFC 002:168 JLINK_IsHalted()  returns FALSE (0001ms, 1269ms total)
T0BFC 002:220 JLINK_IsHalted()  returns TRUE (0006ms, 1269ms total)
T0BFC 002:226 JLINK_ReadReg(R15)  returns 0x10000000 (0000ms, 1269ms total)
T0BFC 002:226 JLINK_ClrBPEx(BPHandle = 0x00000010)  returns 0x00 (0000ms, 1269ms total)
T0BFC 002:226 JLINK_ReadReg(R0)  returns 0x00000000 (0000ms, 1269ms total)
T0BFC 002:227 JLINK_WriteReg(R0, 0x0000F000)  returns 0x00 (0000ms, 1269ms total)
T0BFC 002:227 JLINK_WriteReg(R1, 0x00001000)  returns 0x00 (0000ms, 1269ms total)
T0BFC 002:227 JLINK_WriteReg(R2, 0x000000FF)  returns 0x00 (0000ms, 1269ms total)
T0BFC 002:227 JLINK_WriteReg(R3, 0x00000000)  returns 0x00 (0000ms, 1269ms total)
T0BFC 002:227 JLINK_WriteReg(R4, 0x00000000)  returns 0x00 (0000ms, 1269ms total)
